T2038 735:104 SEGGER J-Link V6.46 Log File (0001ms, 6690ms total)
T2038 735:104 DLL Compiled: May 23 2019 17:49:56 (0001ms, 6690ms total)
T2038 735:104 Logging started @ 2020-11-02 09:27 (0001ms, 6690ms total)
T2038 735:105 JLINK_SetWarnOutHandler(...) (0000ms, 6690ms total)
T2038 735:105 JLINK_OpenEx(...)
Firmware: J-Link V9 compiled May 17 2019 09:50:41
Hardware: V9.20
Feature(s): RDI, FlashBP, FlashDL, JFlash, GDB
TELNET listener socket opened on port 19021Device "STM32F030RC" selected.WEBSRV 
Starting webserver (0059ms, 6749ms total)
T2038 735:105 WEBSRV Webserver running on local port 19080 (0059ms, 6749ms total)
T2038 735:105   returns O.K. (0059ms, 6749ms total)
T2038 735:165 JLINK_GetEmuCaps()  returns 0xB9FF7BBF (0000ms, 6749ms total)
T2038 735:165 JLINK_TIF_GetAvailable(...) (0000ms, 6749ms total)
T2038 735:165 JLINK_SetErrorOutHandler(...) (0000ms, 6749ms total)
T2038 735:165 JLINK_ExecCommand("ProjectFile = "D:\BC66\project_meter\BC66_BOOTLOADER\Projects\STM32F030F4_LED_USART\MDK-ARM\JLinkSettings.ini"", ...). Device "STM32F030RC" selected.  returns 0x00 (0007ms, 6756ms total)
T2038 735:175 JLINK_ExecCommand("Device = STM32F030RCTx", ...). Device "STM32F030RC" selected.  returns 0x00 (0005ms, 6761ms total)
T2038 735:180 JLINK_ExecCommand("DisableConnectionTimeout", ...).   returns 0x01 (0000ms, 6761ms total)
T2038 735:180 JLINK_GetHardwareVersion()  returns 0x16760 (0000ms, 6761ms total)
T2038 735:180 JLINK_GetDLLVersion()  returns 64600 (0000ms, 6761ms total)
T2038 735:180 JLINK_GetFirmwareString(...) (0000ms, 6761ms total)
T2038 735:189 JLINK_GetDLLVersion()  returns 64600 (0000ms, 6761ms total)
T2038 735:189 JLINK_GetCompileDateTime() (0000ms, 6761ms total)
T2038 735:191 JLINK_GetFirmwareString(...) (0000ms, 6761ms total)
T2038 735:194 JLINK_GetHardwareVersion()  returns 0x16760 (0000ms, 6761ms total)
T2038 735:203 JLINK_TIF_Select(JLINKARM_TIF_SWD)  returns 0x00 (0001ms, 6762ms total)
T2038 735:204 JLINK_SetSpeed(3000) (0000ms, 6762ms total)
T2038 735:204 JLINK_GetId() >0x10B TIF>Found SW-DP with ID 0x0BB11477 >0x0D TIF> >0x28 TIF> >0x0D TIF> >0x28 TIF> >0x0D TIF> >0x28 TIF> >0x0D TIF> >0x28 TIF> >0x0D TIF> >0x21 TIF> >0x0D TIF> >0x28 TIF> >0x0D TIF> >0x28 TIF> >0x0D TIF> >0x28 TIF> >0x0D TIF> >0x21 TIF> >0x0D TIF> >0x21 TIF> >0x0D TIF> >0x28 TIF> >0x0D TIF> >0x21 TIF> >0x0D TIF> >0x21 TIF> >0x0D TIF> >0x28 TIF> >0x0D TIF> >0x21 TIF> >0x0D TIF> >0x21 TIF> >0x0D TIF> >0x28 TIF> >0x0D TIF> >0x28 TIF> >0x0D TIF> >0x28 TIF> >0x0D TIF> >0x21 TIF>
 >0x0D TIF> >0x21 TIF> >0x0D TIF> >0x28 TIF> >0x0D TIF> >0x28 TIF> >0x0D TIF> >0x28 TIF> >0x0D TIF> >0x21 TIF> >0x0D TIF> >0x21 TIF> >0x0D TIF> >0x28 TIF> >0x0D TIF> >0x21 TIF> >0x0D TIF> >0x21 TIF> >0x0D TIF> >0x28 TIF> >0x0D TIF> >0x21 TIF> >0x0D TIF> >0x21 TIF> >0x0D TIF> >0x28 TIF> >0x0D TIF> >0x21 TIF> >0x0D TIF> >0x21 TIF> >0x0D TIF> >0x28 TIF> >0x0D TIF> >0x21 TIF> >0x0D TIF> >0x21 TIF> >0x0D TIF> >0x28 TIF> >0x0D TIF> >0x21 TIF> >0x0D TIF> >0x21 TIF> >0x10B TIF>Found SW-DP with ID 0x0BB11477
 >0x0D TIF> >0x28 TIF> >0x0D TIF> >0x28 TIF> >0x0D TIF> >0x28 TIF> >0x0D TIF> >0x28 TIF> >0x0D TIF> >0x21 TIF> >0x0D TIF> >0x28 TIF>Scanning AP map to find all available APs >0x0D TIF> >0x28 TIF> >0x0D TIF> >0x21 TIF> >0x0D TIF> >0x21 TIF> >0x0D TIF> >0x28 TIF> >0x0D TIF> >0x21 TIF> >0x0D TIF> >0x21 TIF>AP[1]: Stopped AP scan as end of AP map has been reachedAP[0]: AHB-AP (IDR: 0x04770021)Iterating through AP map to find AHB-AP to use >0x42 TIF> >0x28 TIF> >0x0D TIF> >0x28 TIF> >0x0D TIF> >0x21 TIF>
 >0x0D TIF> >0x21 TIF> >0x42 TIF> >0x28 TIF> >0x0D TIF> >0x28 TIF> >0x0D TIF> >0x28 TIF> >0x0D TIF> >0x21 TIF> >0x0D TIF> >0x21 TIF>AP[0]: Core foundAP[0]: AHB-AP ROM base: 0xE00FF000 >0x0D TIF> >0x28 TIF> >0x0D TIF> >0x28 TIF> >0x0D TIF> >0x28 TIF> >0x0D TIF> >0x21 TIF> >0x0D TIF> >0x21 TIF>CPUID register: 0x410CC200. Implementer code: 0x41 (ARM)Found Cortex-M0 r0p0, Little endian. -- Max. mem block: 0x00010F28 -- CPU_ReadMem(4 bytes @ 0xE000EDF0) -- CPU_WriteMem(4 bytes @ 0xE000EDF0)
 -- CPU_ReadMem(4 bytes @ 0xE0002000)FPUnit: 4 code (BP) slots and 0 literal slots -- CPU_ReadMem(4 bytes @ 0xE000EDFC) -- CPU_WriteMem(4 bytes @ 0xE000EDFC) -- CPU_ReadMem(4 bytes @ 0xE0001000) -- CPU_WriteMem(4 bytes @ 0xE0001000)CoreSight components:ROMTbl[0] @ E00FF000 -- CPU_ReadMem(16 bytes @ 0xE00FF000) -- CPU_ReadMem(16 bytes @ 0xE000EFF0) -- CPU_ReadMem(16 bytes @ 0xE000EFE0)ROMTbl[0][0]: E000E000, CID: B105E00D, PID: 000BB008 SCS -- CPU_ReadMem(16 bytes @ 0xE0001FF0)
 -- CPU_ReadMem(16 bytes @ 0xE0001FE0)ROMTbl[0][1]: E0001000, CID: B105E00D, PID: 000BB00A DWT -- CPU_ReadMem(16 bytes @ 0xE0002FF0) -- CPU_ReadMem(16 bytes @ 0xE0002FE0)ROMTbl[0][2]: E0002000, CID: B105E00D, PID: 000BB00B FPB >0x0D TIF> >0x21 TIF>  returns 0x0BB11477 (0246ms, 7008ms total)
T2038 735:450 JLINK_GetDLLVersion()  returns 64600 (0000ms, 7008ms total)
T2038 735:450 JLINK_CORE_GetFound()  returns 0x60000FF (0000ms, 7008ms total)
T2038 735:450 JLINK_GetDebugInfo(0x100 = JLINKARM_ROM_TABLE_ADDR_INDEX) -- Value=0xE00FF000  returns 0x00 (0001ms, 7009ms total)
T2038 735:453 JLINK_GetDebugInfo(0x100 = JLINKARM_ROM_TABLE_ADDR_INDEX) -- Value=0xE00FF000  returns 0x00 (0000ms, 7009ms total)
T2038 735:453 JLINK_GetDebugInfo(0x101 = JLINKARM_DEBUG_INFO_ETM_ADDR_INDEX) -- Value=0x00000000  returns 0x00 (0000ms, 7009ms total)
T2038 735:453 JLINK_ReadMemEx(0xE0041FF0, 0x0010 Bytes, ..., Flags = 0x02000004) -- CPU_ReadMem(16 bytes @ 0xE0041FF0) - Data: 00 00 00 00 00 00 00 00 00 00 00 00 00 00 00 00  returns 0x10 (0001ms, 7010ms total)
T2038 735:454 JLINK_GetDebugInfo(0x102 = JLINKARM_DEBUG_INFO_MTB_ADDR_INDEX) -- Value=0x00000000  returns 0x00 (0000ms, 7010ms total)
T2038 735:454 JLINK_GetDebugInfo(0x103 = JLINKARM_DEBUG_INFO_TPIU_ADDR_INDEX) -- Value=0x00000000  returns 0x00 (0000ms, 7010ms total)
T2038 735:454 JLINK_ReadMemEx(0xE0040FF0, 0x0010 Bytes, ..., Flags = 0x02000004) -- CPU_ReadMem(16 bytes @ 0xE0040FF0) - Data: 00 00 00 00 00 00 00 00 00 00 00 00 00 00 00 00  returns 0x10 (0001ms, 7011ms total)
T2038 735:455 JLINK_GetDebugInfo(0x104 = JLINKARM_DEBUG_INFO_ITM_ADDR_INDEX) -- Value=0xE0000000  returns 0x00 (0000ms, 7011ms total)
T2038 735:455 JLINK_GetDebugInfo(0x105 = JLINKARM_DEBUG_INFO_DWT_ADDR_INDEX) -- Value=0xE0001000  returns 0x00 (0000ms, 7011ms total)
T2038 735:455 JLINK_GetDebugInfo(0x106 = JLINKARM_DEBUG_INFO_FPB_ADDR_INDEX) -- Value=0xE0002000  returns 0x00 (0000ms, 7011ms total)
T2038 735:455 JLINK_GetDebugInfo(0x107 = JLINKARM_DEBUG_INFO_NVIC_ADDR_INDEX) -- Value=0xE000E000  returns 0x00 (0000ms, 7011ms total)
T2038 735:455 JLINK_GetDebugInfo(0x10C = JLINKARM_DEBUG_INFO_DBG_ADDR_INDEX) -- Value=0xE000EDF0  returns 0x00 (0000ms, 7011ms total)
T2038 735:455 JLINK_GetDebugInfo(0x01 = Unknown) -- Value=0x00000000  returns 0x00 (0000ms, 7011ms total)
T2038 735:455 JLINK_ReadMemU32(0xE000ED00, 0x0001 Items, ...) -- CPU_ReadMem(4 bytes @ 0xE000ED00) - Data: 00 C2 0C 41  returns 1 (0000ms, 7011ms total)
T2038 735:455 JLINK_GetDebugInfo(0x10F = JLINKARM_DEBUG_INFO_HAS_CORTEX_M_SECURITY_EXT_INDEX) -- Value=0x00000000  returns 0x00 (0001ms, 7012ms total)
T2038 735:456 JLINK_SetResetType(JLINKARM_CM3_RESET_TYPE_NORMAL)  returns JLINKARM_CM3_RESET_TYPE_NORMAL (0000ms, 7012ms total)
T2038 735:456 JLINK_Reset() -- CPU is running -- CPU_WriteMem(4 bytes @ 0xE000EDF0) -- CPU is running -- CPU_WriteMem(4 bytes @ 0xE000EDFC)Reset: Halt core after reset via DEMCR.VC_CORERESET. >0x35 TIF>Reset: Reset device via AIRCR.SYSRESETREQ. -- CPU is running -- CPU_WriteMem(4 bytes @ 0xE000ED0C) >0x0D TIF> >0x28 TIF> -- CPU_ReadMem(4 bytes @ 0xE000EDF0) -- CPU_ReadMem(4 bytes @ 0xE000EDF0) -- CPU is running -- CPU_WriteMem(4 bytes @ 0xE000EDF0) -- CPU is running -- CPU_WriteMem(4 bytes @ 0xE000EDFC)
 -- CPU_ReadMem(4 bytes @ 0xE000EDF0) -- CPU_WriteMem(4 bytes @ 0xE0002000) -- CPU_ReadMem(4 bytes @ 0xE000EDFC) -- CPU_ReadMem(4 bytes @ 0xE0001000) -- CPU_WriteMem(4 bytes @ 0xE0001000) (0079ms, 7091ms total)
T2038 735:535 JLINK_Halt()  returns 0x00 (0000ms, 7091ms total)
T2038 735:535 JLINK_ReadMemU32(0xE000EDF0, 0x0001 Items, ...) -- CPU_ReadMem(4 bytes @ 0xE000EDF0) - Data: 03 00 03 00  returns 1 (0001ms, 7092ms total)
T2038 735:536 JLINK_WriteU32(0xE000EDF0, 0xA05F0003) -- CPU_WriteMem(4 bytes @ 0xE000EDF0)  returns 0 (0001ms, 7093ms total)
T2038 735:537 JLINK_WriteU32(0xE000EDFC, 0x01000000) -- CPU_WriteMem(4 bytes @ 0xE000EDFC)  returns 0 (0001ms, 7094ms total)
T2038 735:552 JLINK_GetHWStatus(...)  returns 0x00 (0001ms, 7095ms total)
T2038 735:562 JLINK_GetNumBPUnits(Type = 0xFFFFFF00)  returns 0x04 (0000ms, 7095ms total)
T2038 735:562 JLINK_GetNumBPUnits(Type = 0xF0)  returns 0x2000 (0000ms, 7095ms total)
T2038 735:562 JLINK_GetNumWPUnits()  returns 0x02 (0000ms, 7095ms total)
T2038 735:571 JLINK_GetSpeed()  returns 0xBB8 (0000ms, 7095ms total)
T2038 735:580 JLINK_ReadMemU32(0xE000E004, 0x0001 Items, ...) -- CPU_ReadMem(4 bytes @ 0xE000E004) - Data: 00 00 00 00  returns 1 (0000ms, 7095ms total)
T2038 735:580 JLINK_Halt()  returns 0x00 (0000ms, 7095ms total)
T2038 735:580 JLINK_IsHalted()  returns TRUE (0000ms, 7095ms total)
T2038 735:583 JLINK_WriteMem(0x20000000, 0x0170 Bytes, ...) - Data: 00 BE 0A E0 0D 78 2D 06 68 40 08 24 40 00 00 D3 ... -- CPU_WriteMem(368 bytes @ 0x20000000)  returns 0x170 (0004ms, 7099ms total)
T2038 735:587 JLINK_WriteReg(R0, 0x08000000)  returns 0x00 (0000ms, 7099ms total)
T2038 735:587 JLINK_WriteReg(R1, 0x00B71B00)  returns 0x00 (0000ms, 7099ms total)
T2038 735:587 JLINK_WriteReg(R2, 0x00000001)  returns 0x00 (0000ms, 7099ms total)
T2038 735:587 JLINK_WriteReg(R3, 0x00000000)  returns 0x00 (0000ms, 7099ms total)
T2038 735:587 JLINK_WriteReg(R4, 0x00000000)  returns 0x00 (0000ms, 7099ms total)
T2038 735:587 JLINK_WriteReg(R5, 0x00000000)  returns 0x00 (0000ms, 7099ms total)
T2038 735:587 JLINK_WriteReg(R6, 0x00000000)  returns 0x00 (0000ms, 7099ms total)
T2038 735:587 JLINK_WriteReg(R7, 0x00000000)  returns 0x00 (0000ms, 7099ms total)
T2038 735:587 JLINK_WriteReg(R8, 0x00000000)  returns 0x00 (0000ms, 7099ms total)
T2038 735:587 JLINK_WriteReg(R9, 0x2000016C)  returns 0x00 (0000ms, 7099ms total)
T2038 735:587 JLINK_WriteReg(R10, 0x00000000)  returns 0x00 (0000ms, 7099ms total)
T2038 735:587 JLINK_WriteReg(R11, 0x00000000)  returns 0x00 (0000ms, 7099ms total)
T2038 735:587 JLINK_WriteReg(R12, 0x00000000)  returns 0x00 (0000ms, 7099ms total)
T2038 735:587 JLINK_WriteReg(R13 (SP), 0x20001000)  returns 0x00 (0000ms, 7099ms total)
T2038 735:587 JLINK_WriteReg(R14, 0x20000001)  returns 0x00 (0000ms, 7099ms total)
T2038 735:587 JLINK_WriteReg(R15 (PC), 0x20000038)  returns 0x00 (0000ms, 7099ms total)
T2038 735:587 JLINK_WriteReg(XPSR, 0x01000000)  returns 0x00 (0000ms, 7099ms total)
T2038 735:587 JLINK_WriteReg(MSP, 0x20001000)  returns 0x00 (0000ms, 7099ms total)
T2038 735:587 JLINK_WriteReg(PSP, 0x20001000)  returns 0x00 (0000ms, 7099ms total)
T2038 735:587 JLINK_WriteReg(CFBP, 0x00000000)  returns 0x00 (0000ms, 7099ms total)
T2038 735:587 JLINK_SetBPEx(Addr = 0x20000000, Type = 0xFFFFFFF2) -- CPU_ReadMem(2 bytes @ 0x20000000)  returns 0x00000001 (0001ms, 7100ms total)
T2038 735:588 JLINK_Go() -- CPU_WriteMem(2 bytes @ 0x20000000) -- CPU_ReadMem(4 bytes @ 0xE0001000) -- CPU_WriteMem(4 bytes @ 0xE0001000) -- CPU_WriteMem(4 bytes @ 0xE0002008) -- CPU_WriteMem(4 bytes @ 0xE000200C) -- CPU_WriteMem(4 bytes @ 0xE0002010) -- CPU_WriteMem(4 bytes @ 0xE0002014) -- CPU_WriteMem(4 bytes @ 0xE0001004) (0005ms, 7105ms total)
T2038 735:593 JLINK_IsHalted() -- CPU_ReadMem(2 bytes @ 0x20000000)  returns TRUE (0004ms, 7109ms total)
T2038 735:597 JLINK_ReadReg(R15 (PC))  returns 0x20000000 (0000ms, 7105ms total)
T2038 735:597 JLINK_ClrBPEx(BPHandle = 0x00000001)  returns 0x00 (0000ms, 7105ms total)
T2038 735:597 JLINK_ReadReg(R0)  returns 0x00000000 (0000ms, 7105ms total)
T2038 735:597 JLINK_WriteReg(R0, 0x08000000)  returns 0x00 (0000ms, 7105ms total)
T2038 735:597 JLINK_WriteReg(R1, 0x00B71B00)  returns 0x00 (0000ms, 7105ms total)
T2038 735:597 JLINK_WriteReg(R2, 0x00000001)  returns 0x00 (0000ms, 7105ms total)
T2038 735:597 JLINK_WriteReg(R3, 0x00000000)  returns 0x00 (0000ms, 7105ms total)
T2038 735:597 JLINK_WriteReg(R4, 0x00000000)  returns 0x00 (0000ms, 7105ms total)
T2038 735:597 JLINK_WriteReg(R5, 0x00000000)  returns 0x00 (0000ms, 7105ms total)
T2038 735:597 JLINK_WriteReg(R6, 0x00000000)  returns 0x00 (0000ms, 7105ms total)
T2038 735:597 JLINK_WriteReg(R7, 0x00000000)  returns 0x00 (0000ms, 7105ms total)
T2038 735:597 JLINK_WriteReg(R8, 0x00000000)  returns 0x00 (0000ms, 7105ms total)
T2038 735:597 JLINK_WriteReg(R9, 0x2000016C)  returns 0x00 (0000ms, 7105ms total)
T2038 735:597 JLINK_WriteReg(R10, 0x00000000)  returns 0x00 (0000ms, 7105ms total)
T2038 735:597 JLINK_WriteReg(R11, 0x00000000)  returns 0x00 (0000ms, 7105ms total)
T2038 735:597 JLINK_WriteReg(R12, 0x00000000)  returns 0x00 (0000ms, 7105ms total)
T2038 735:597 JLINK_WriteReg(R13 (SP), 0x20001000)  returns 0x00 (0000ms, 7105ms total)
T2038 735:597 JLINK_WriteReg(R14, 0x20000001)  returns 0x00 (0000ms, 7105ms total)
T2038 735:597 JLINK_WriteReg(R15 (PC), 0x20000074)  returns 0x00 (0000ms, 7105ms total)
T2038 735:597 JLINK_WriteReg(XPSR, 0x01000000)  returns 0x00 (0000ms, 7105ms total)
T2038 735:597 JLINK_WriteReg(MSP, 0x20001000)  returns 0x00 (0000ms, 7105ms total)
T2038 735:597 JLINK_WriteReg(PSP, 0x20001000)  returns 0x00 (0000ms, 7105ms total)
T2038 735:597 JLINK_WriteReg(CFBP, 0x00000000)  returns 0x00 (0000ms, 7105ms total)
T2038 735:597 JLINK_SetBPEx(Addr = 0x20000000, Type = 0xFFFFFFF2)  returns 0x00000002 (0000ms, 7105ms total)
T2038 735:597 JLINK_Go() -- CPU_ReadMem(4 bytes @ 0xE0001000) -- CPU_WriteMem(4 bytes @ 0xE0001000) (0005ms, 7110ms total)
T2038 735:602 JLINK_IsHalted()  returns FALSE (0000ms, 7110ms total)
T2038 735:662 JLINK_IsHalted() -- CPU_ReadMem(2 bytes @ 0x20000000)  returns TRUE (0005ms, 7115ms total)
T2038 735:667 JLINK_ReadReg(R15 (PC))  returns 0x20000000 (0000ms, 7110ms total)
T2038 735:667 JLINK_ClrBPEx(BPHandle = 0x00000002)  returns 0x00 (0000ms, 7110ms total)
T2038 735:667 JLINK_ReadReg(R0)  returns 0x00000000 (0000ms, 7110ms total)
T2038 735:719 JLINK_WriteReg(R0, 0x00000001)  returns 0x00 (0000ms, 7110ms total)
T2038 735:719 JLINK_WriteReg(R1, 0x00B71B00)  returns 0x00 (0001ms, 7111ms total)
T2038 735:720 JLINK_WriteReg(R2, 0x00000001)  returns 0x00 (0000ms, 7111ms total)
T2038 735:720 JLINK_WriteReg(R3, 0x00000000)  returns 0x00 (0000ms, 7111ms total)
T2038 735:720 JLINK_WriteReg(R4, 0x00000000)  returns 0x00 (0000ms, 7111ms total)
T2038 735:720 JLINK_WriteReg(R5, 0x00000000)  returns 0x00 (0000ms, 7111ms total)
T2038 735:720 JLINK_WriteReg(R6, 0x00000000)  returns 0x00 (0000ms, 7111ms total)
T2038 735:720 JLINK_WriteReg(R7, 0x00000000)  returns 0x00 (0000ms, 7111ms total)
T2038 735:720 JLINK_WriteReg(R8, 0x00000000)  returns 0x00 (0000ms, 7111ms total)
T2038 735:720 JLINK_WriteReg(R9, 0x2000016C)  returns 0x00 (0000ms, 7111ms total)
T2038 735:720 JLINK_WriteReg(R10, 0x00000000)  returns 0x00 (0000ms, 7111ms total)
T2038 735:720 JLINK_WriteReg(R11, 0x00000000)  returns 0x00 (0000ms, 7111ms total)
T2038 735:720 JLINK_WriteReg(R12, 0x00000000)  returns 0x00 (0000ms, 7111ms total)
T2038 735:720 JLINK_WriteReg(R13 (SP), 0x20001000)  returns 0x00 (0000ms, 7111ms total)
T2038 735:720 JLINK_WriteReg(R14, 0x20000001)  returns 0x00 (0000ms, 7111ms total)
T2038 735:720 JLINK_WriteReg(R15 (PC), 0x20000066)  returns 0x00 (0000ms, 7111ms total)
T2038 735:720 JLINK_WriteReg(XPSR, 0x01000000)  returns 0x00 (0000ms, 7111ms total)
T2038 735:720 JLINK_WriteReg(MSP, 0x20001000)  returns 0x00 (0000ms, 7111ms total)
T2038 735:720 JLINK_WriteReg(PSP, 0x20001000)  returns 0x00 (0000ms, 7111ms total)
T2038 735:720 JLINK_WriteReg(CFBP, 0x00000000)  returns 0x00 (0000ms, 7111ms total)
T2038 735:720 JLINK_SetBPEx(Addr = 0x20000000, Type = 0xFFFFFFF2)  returns 0x00000003 (0000ms, 7111ms total)
T2038 735:720 JLINK_Go() -- CPU_ReadMem(4 bytes @ 0xE0001000) -- CPU_WriteMem(4 bytes @ 0xE0001000) (0007ms, 7118ms total)
T2038 735:727 JLINK_IsHalted() -- CPU_ReadMem(2 bytes @ 0x20000000)  returns TRUE (0004ms, 7122ms total)
T2038 735:731 JLINK_ReadReg(R15 (PC))  returns 0x20000000 (0000ms, 7118ms total)
T2038 735:731 JLINK_ClrBPEx(BPHandle = 0x00000003)  returns 0x00 (0000ms, 7118ms total)
T2038 735:731 JLINK_ReadReg(R0)  returns 0x00000000 (0000ms, 7118ms total)
T2038 735:737 JLINK_WriteMem(0x20000000, 0x0170 Bytes, ...) - Data: 00 BE 0A E0 0D 78 2D 06 68 40 08 24 40 00 00 D3 ... -- CPU_WriteMem(368 bytes @ 0x20000000)  returns 0x170 (0003ms, 7121ms total)
T2038 735:740 JLINK_WriteReg(R0, 0x08000000)  returns 0x00 (0000ms, 7121ms total)
T2038 735:740 JLINK_WriteReg(R1, 0x00B71B00)  returns 0x00 (0000ms, 7121ms total)
T2038 735:740 JLINK_WriteReg(R2, 0x00000002)  returns 0x00 (0000ms, 7121ms total)
T2038 735:740 JLINK_WriteReg(R3, 0x00000000)  returns 0x00 (0000ms, 7121ms total)
T2038 735:740 JLINK_WriteReg(R4, 0x00000000)  returns 0x00 (0000ms, 7121ms total)
T2038 735:740 JLINK_WriteReg(R5, 0x00000000)  returns 0x00 (0000ms, 7121ms total)
T2038 735:740 JLINK_WriteReg(R6, 0x00000000)  returns 0x00 (0000ms, 7121ms total)
T2038 735:740 JLINK_WriteReg(R7, 0x00000000)  returns 0x00 (0000ms, 7121ms total)
T2038 735:740 JLINK_WriteReg(R8, 0x00000000)  returns 0x00 (0000ms, 7121ms total)
T2038 735:740 JLINK_WriteReg(R9, 0x2000016C)  returns 0x00 (0000ms, 7121ms total)
T2038 735:740 JLINK_WriteReg(R10, 0x00000000)  returns 0x00 (0000ms, 7121ms total)
T2038 735:740 JLINK_WriteReg(R11, 0x00000000)  returns 0x00 (0000ms, 7121ms total)
T2038 735:740 JLINK_WriteReg(R12, 0x00000000)  returns 0x00 (0000ms, 7121ms total)
T2038 735:740 JLINK_WriteReg(R13 (SP), 0x20001000)  returns 0x00 (0000ms, 7121ms total)
T2038 735:740 JLINK_WriteReg(R14, 0x20000001)  returns 0x00 (0000ms, 7121ms total)
T2038 735:740 JLINK_WriteReg(R15 (PC), 0x20000038)  returns 0x00 (0000ms, 7121ms total)
T2038 735:740 JLINK_WriteReg(XPSR, 0x01000000)  returns 0x00 (0000ms, 7121ms total)
T2038 735:740 JLINK_WriteReg(MSP, 0x20001000)  returns 0x00 (0000ms, 7121ms total)
T2038 735:740 JLINK_WriteReg(PSP, 0x20001000)  returns 0x00 (0000ms, 7121ms total)
T2038 735:740 JLINK_WriteReg(CFBP, 0x00000000)  returns 0x00 (0000ms, 7121ms total)
T2038 735:740 JLINK_SetBPEx(Addr = 0x20000000, Type = 0xFFFFFFF2) -- CPU_ReadMem(2 bytes @ 0x20000000)  returns 0x00000004 (0001ms, 7122ms total)
T2038 735:741 JLINK_Go() -- CPU_WriteMem(2 bytes @ 0x20000000) -- CPU_ReadMem(4 bytes @ 0xE0001000) -- CPU_WriteMem(4 bytes @ 0xE0001000) (0006ms, 7128ms total)
T2038 735:747 JLINK_IsHalted() -- CPU_ReadMem(2 bytes @ 0x20000000)  returns TRUE (0004ms, 7132ms total)
T2038 735:751 JLINK_ReadReg(R15 (PC))  returns 0x20000000 (0000ms, 7128ms total)
T2038 735:751 JLINK_ClrBPEx(BPHandle = 0x00000004)  returns 0x00 (0000ms, 7128ms total)
T2038 735:751 JLINK_ReadReg(R0)  returns 0x00000000 (0000ms, 7128ms total)
T2038 735:751 JLINK_WriteMem(0x20000170, 0x0290 Bytes, ...) - Data: 98 25 00 20 D5 00 00 08 49 18 00 08 81 0B 00 08 ... -- CPU_WriteMem(656 bytes @ 0x20000170)  returns 0x290 (0004ms, 7132ms total)
T2038 735:755 JLINK_WriteMem(0x20000400, 0x0170 Bytes, ...) - Data: 29 6A 88 47 00 28 F6 D1 00 98 40 1C 0C D0 03 20 ... -- CPU_WriteMem(368 bytes @ 0x20000400)  returns 0x170 (0003ms, 7135ms total)
T2038 735:758 JLINK_WriteReg(R0, 0x08000000)  returns 0x00 (0000ms, 7135ms total)
T2038 735:758 JLINK_WriteReg(R1, 0x00000400)  returns 0x00 (0000ms, 7135ms total)
T2038 735:758 JLINK_WriteReg(R2, 0x20000170)  returns 0x00 (0000ms, 7135ms total)
T2038 735:758 JLINK_WriteReg(R3, 0x00000000)  returns 0x00 (0000ms, 7135ms total)
T2038 735:758 JLINK_WriteReg(R4, 0x00000000)  returns 0x00 (0000ms, 7135ms total)
T2038 735:758 JLINK_WriteReg(R5, 0x00000000)  returns 0x00 (0000ms, 7135ms total)
T2038 735:758 JLINK_WriteReg(R6, 0x00000000)  returns 0x00 (0000ms, 7135ms total)
T2038 735:758 JLINK_WriteReg(R7, 0x00000000)  returns 0x00 (0000ms, 7135ms total)
T2038 735:758 JLINK_WriteReg(R8, 0x00000000)  returns 0x00 (0000ms, 7135ms total)
T2038 735:758 JLINK_WriteReg(R9, 0x2000016C)  returns 0x00 (0000ms, 7135ms total)
T2038 735:758 JLINK_WriteReg(R10, 0x00000000)  returns 0x00 (0000ms, 7135ms total)
T2038 735:758 JLINK_WriteReg(R11, 0x00000000)  returns 0x00 (0000ms, 7135ms total)
T2038 735:758 JLINK_WriteReg(R12, 0x00000000)  returns 0x00 (0000ms, 7135ms total)
T2038 735:758 JLINK_WriteReg(R13 (SP), 0x20001000)  returns 0x00 (0000ms, 7135ms total)
T2038 735:758 JLINK_WriteReg(R14, 0x20000001)  returns 0x00 (0000ms, 7135ms total)
T2038 735:758 JLINK_WriteReg(R15 (PC), 0x200000FA)  returns 0x00 (0000ms, 7135ms total)
T2038 735:758 JLINK_WriteReg(XPSR, 0x01000000)  returns 0x00 (0000ms, 7135ms total)
T2038 735:758 JLINK_WriteReg(MSP, 0x20001000)  returns 0x00 (0000ms, 7135ms total)
T2038 735:758 JLINK_WriteReg(PSP, 0x20001000)  returns 0x00 (0000ms, 7135ms total)
T2038 735:758 JLINK_WriteReg(CFBP, 0x00000000)  returns 0x00 (0000ms, 7135ms total)
T2038 735:758 JLINK_SetBPEx(Addr = 0x20000000, Type = 0xFFFFFFF2)  returns 0x00000005 (0000ms, 7135ms total)
T2038 735:759 JLINK_Go() -- CPU_ReadMem(4 bytes @ 0xE0001000) -- CPU_WriteMem(4 bytes @ 0xE0001000) (0004ms, 7140ms total)
T2038 735:763 JLINK_IsHalted()  returns FALSE (0000ms, 7140ms total)
T2038 735:772 JLINK_IsHalted()  returns FALSE (0001ms, 7141ms total)
T2038 735:775 JLINK_IsHalted()  returns FALSE (0000ms, 7140ms total)
T2038 735:777 JLINK_IsHalted()  returns FALSE (0000ms, 7140ms total)
T2038 735:779 JLINK_IsHalted()  returns FALSE (0000ms, 7140ms total)
T2038 735:781 JLINK_IsHalted()  returns FALSE (0000ms, 7140ms total)
T2038 735:783 JLINK_IsHalted()  returns FALSE (0000ms, 7140ms total)
T2038 735:785 JLINK_IsHalted()  returns FALSE (0000ms, 7140ms total)
T2038 735:787 JLINK_IsHalted()  returns FALSE (0000ms, 7140ms total)
T2038 735:789 JLINK_IsHalted()  returns FALSE (0000ms, 7140ms total)
T2038 735:791 JLINK_IsHalted()  returns FALSE (0000ms, 7140ms total)
T2038 735:793 JLINK_IsHalted() -- CPU_ReadMem(2 bytes @ 0x20000000)  returns TRUE (0004ms, 7144ms total)
T2038 735:797 JLINK_ReadReg(R15 (PC))  returns 0x20000000 (0000ms, 7140ms total)
T2038 735:797 JLINK_ClrBPEx(BPHandle = 0x00000005)  returns 0x00 (0000ms, 7140ms total)
T2038 735:797 JLINK_ReadReg(R0)  returns 0x00000000 (0000ms, 7140ms total)
T2038 735:798 JLINK_WriteMem(0x20000170, 0x0290 Bytes, ...) - Data: 17 E0 00 20 C0 43 07 B0 F0 BD 20 68 01 1D 21 60 ... -- CPU_WriteMem(656 bytes @ 0x20000170)  returns 0x290 (0004ms, 7144ms total)
T2038 735:802 JLINK_WriteMem(0x20000400, 0x0170 Bytes, ...) - Data: 39 46 09 98 90 47 2A 28 0C D1 62 69 01 21 09 98 ... -- CPU_WriteMem(368 bytes @ 0x20000400)  returns 0x170 (0003ms, 7147ms total)
T2038 735:805 JLINK_WriteReg(R0, 0x08000400)  returns 0x00 (0000ms, 7147ms total)
T2038 735:805 JLINK_WriteReg(R1, 0x00000400)  returns 0x00 (0000ms, 7147ms total)
T2038 735:805 JLINK_WriteReg(R2, 0x20000170)  returns 0x00 (0000ms, 7147ms total)
T2038 735:805 JLINK_WriteReg(R3, 0x00000000)  returns 0x00 (0000ms, 7147ms total)
T2038 735:805 JLINK_WriteReg(R4, 0x00000000)  returns 0x00 (0000ms, 7147ms total)
T2038 735:805 JLINK_WriteReg(R5, 0x00000000)  returns 0x00 (0000ms, 7147ms total)
T2038 735:805 JLINK_WriteReg(R6, 0x00000000)  returns 0x00 (0000ms, 7147ms total)
T2038 735:805 JLINK_WriteReg(R7, 0x00000000)  returns 0x00 (0000ms, 7147ms total)
T2038 735:805 JLINK_WriteReg(R8, 0x00000000)  returns 0x00 (0000ms, 7147ms total)
T2038 735:805 JLINK_WriteReg(R9, 0x2000016C)  returns 0x00 (0000ms, 7147ms total)
T2038 735:805 JLINK_WriteReg(R10, 0x00000000)  returns 0x00 (0000ms, 7147ms total)
T2038 735:805 JLINK_WriteReg(R11, 0x00000000)  returns 0x00 (0000ms, 7147ms total)
T2038 735:805 JLINK_WriteReg(R12, 0x00000000)  returns 0x00 (0000ms, 7147ms total)
T2038 735:805 JLINK_WriteReg(R13 (SP), 0x20001000)  returns 0x00 (0000ms, 7147ms total)
T2038 735:805 JLINK_WriteReg(R14, 0x20000001)  returns 0x00 (0000ms, 7147ms total)
T2038 735:805 JLINK_WriteReg(R15 (PC), 0x200000FA)  returns 0x00 (0000ms, 7147ms total)
T2038 735:805 JLINK_WriteReg(XPSR, 0x01000000)  returns 0x00 (0000ms, 7147ms total)
T2038 735:805 JLINK_WriteReg(MSP, 0x20001000)  returns 0x00 (0000ms, 7147ms total)
T2038 735:805 JLINK_WriteReg(PSP, 0x20001000)  returns 0x00 (0000ms, 7147ms total)
T2038 735:805 JLINK_WriteReg(CFBP, 0x00000000)  returns 0x00 (0000ms, 7147ms total)
T2038 735:805 JLINK_SetBPEx(Addr = 0x20000000, Type = 0xFFFFFFF2)  returns 0x00000006 (0000ms, 7147ms total)
T2038 735:805 JLINK_Go() -- CPU_ReadMem(4 bytes @ 0xE0001000) -- CPU_WriteMem(4 bytes @ 0xE0001000) (0006ms, 7153ms total)
T2038 735:811 JLINK_IsHalted()  returns FALSE (0000ms, 7153ms total)
T2038 735:813 JLINK_IsHalted()  returns FALSE (0000ms, 7153ms total)
T2038 735:815 JLINK_IsHalted()  returns FALSE (0000ms, 7153ms total)
T2038 735:817 JLINK_IsHalted()  returns FALSE (0000ms, 7153ms total)
T2038 735:819 JLINK_IsHalted()  returns FALSE (0000ms, 7153ms total)
T2038 735:821 JLINK_IsHalted()  returns FALSE (0000ms, 7153ms total)
T2038 735:825 JLINK_IsHalted()  returns FALSE (0000ms, 7153ms total)
T2038 735:827 JLINK_IsHalted()  returns FALSE (0000ms, 7153ms total)
T2038 735:829 JLINK_IsHalted()  returns FALSE (0000ms, 7153ms total)
T2038 735:831 JLINK_IsHalted()  returns FALSE (0000ms, 7153ms total)
T2038 735:833 JLINK_IsHalted()  returns FALSE (0001ms, 7154ms total)
T2038 735:836 JLINK_IsHalted()  returns FALSE (0000ms, 7153ms total)
T2038 735:838 JLINK_IsHalted()  returns FALSE (0000ms, 7153ms total)
T2038 735:840 JLINK_IsHalted() -- CPU_ReadMem(2 bytes @ 0x20000000)  returns TRUE (0003ms, 7156ms total)
T2038 735:843 JLINK_ReadReg(R15 (PC))  returns 0x20000000 (0000ms, 7153ms total)
T2038 735:843 JLINK_ClrBPEx(BPHandle = 0x00000006)  returns 0x00 (0000ms, 7153ms total)
T2038 735:843 JLINK_ReadReg(R0)  returns 0x00000000 (0000ms, 7153ms total)
T2038 735:853 JLINK_WriteMem(0x20000170, 0x0290 Bytes, ...) - Data: 06 60 0C E7 28 46 40 21 08 43 60 60 A8 07 23 46 ... -- CPU_WriteMem(656 bytes @ 0x20000170)  returns 0x290 (0004ms, 7157ms total)
T2038 735:857 JLINK_WriteMem(0x20000400, 0x0170 Bytes, ...) - Data: F0 B5 0A 46 00 21 00 23 00 24 00 BF 3D E0 01 25 ... -- CPU_WriteMem(368 bytes @ 0x20000400)  returns 0x170 (0003ms, 7160ms total)
T2038 735:860 JLINK_WriteReg(R0, 0x08000800)  returns 0x00 (0000ms, 7160ms total)
T2038 735:860 JLINK_WriteReg(R1, 0x00000400)  returns 0x00 (0000ms, 7160ms total)
T2038 735:860 JLINK_WriteReg(R2, 0x20000170)  returns 0x00 (0000ms, 7160ms total)
T2038 735:860 JLINK_WriteReg(R3, 0x00000000)  returns 0x00 (0000ms, 7160ms total)
T2038 735:860 JLINK_WriteReg(R4, 0x00000000)  returns 0x00 (0000ms, 7160ms total)
T2038 735:860 JLINK_WriteReg(R5, 0x00000000)  returns 0x00 (0001ms, 7161ms total)
T2038 735:861 JLINK_WriteReg(R6, 0x00000000)  returns 0x00 (0000ms, 7161ms total)
T2038 735:861 JLINK_WriteReg(R7, 0x00000000)  returns 0x00 (0000ms, 7161ms total)
T2038 735:861 JLINK_WriteReg(R8, 0x00000000)  returns 0x00 (0000ms, 7161ms total)
T2038 735:861 JLINK_WriteReg(R9, 0x2000016C)  returns 0x00 (0000ms, 7161ms total)
T2038 735:861 JLINK_WriteReg(R10, 0x00000000)  returns 0x00 (0000ms, 7161ms total)
T2038 735:861 JLINK_WriteReg(R11, 0x00000000)  returns 0x00 (0000ms, 7161ms total)
T2038 735:861 JLINK_WriteReg(R12, 0x00000000)  returns 0x00 (0000ms, 7161ms total)
T2038 735:861 JLINK_WriteReg(R13 (SP), 0x20001000)  returns 0x00 (0000ms, 7161ms total)
T2038 735:861 JLINK_WriteReg(R14, 0x20000001)  returns 0x00 (0000ms, 7161ms total)
T2038 735:861 JLINK_WriteReg(R15 (PC), 0x200000FA)  returns 0x00 (0000ms, 7161ms total)
T2038 735:861 JLINK_WriteReg(XPSR, 0x01000000)  returns 0x00 (0000ms, 7161ms total)
T2038 735:861 JLINK_WriteReg(MSP, 0x20001000)  returns 0x00 (0000ms, 7161ms total)
T2038 735:861 JLINK_WriteReg(PSP, 0x20001000)  returns 0x00 (0000ms, 7161ms total)
T2038 735:861 JLINK_WriteReg(CFBP, 0x00000000)  returns 0x00 (0000ms, 7161ms total)
T2038 735:861 JLINK_SetBPEx(Addr = 0x20000000, Type = 0xFFFFFFF2)  returns 0x00000007 (0000ms, 7161ms total)
T2038 735:861 JLINK_Go() -- CPU_ReadMem(4 bytes @ 0xE0001000) -- CPU_WriteMem(4 bytes @ 0xE0001000) (0005ms, 7166ms total)
T2038 735:866 JLINK_IsHalted()  returns FALSE (0001ms, 7167ms total)
T2038 735:869 JLINK_IsHalted()  returns FALSE (0000ms, 7166ms total)
T2038 735:871 JLINK_IsHalted()  returns FALSE (0000ms, 7166ms total)
T2038 735:873 JLINK_IsHalted()  returns FALSE (0000ms, 7166ms total)
T2038 735:875 JLINK_IsHalted()  returns FALSE (0000ms, 7166ms total)
T2038 735:877 JLINK_IsHalted()  returns FALSE (0000ms, 7166ms total)
T2038 735:879 JLINK_IsHalted()  returns FALSE (0000ms, 7166ms total)
T2038 735:881 JLINK_IsHalted()  returns FALSE (0000ms, 7166ms total)
T2038 735:883 JLINK_IsHalted()  returns FALSE (0000ms, 7166ms total)
T2038 735:885 JLINK_IsHalted()  returns FALSE (0000ms, 7166ms total)
T2038 735:887 JLINK_IsHalted()  returns FALSE (0000ms, 7166ms total)
T2038 735:889 JLINK_IsHalted()  returns FALSE (0000ms, 7166ms total)
T2038 735:891 JLINK_IsHalted()  returns FALSE (0000ms, 7166ms total)
T2038 735:893 JLINK_IsHalted()  returns FALSE (0000ms, 7166ms total)
T2038 735:895 JLINK_IsHalted()  returns FALSE (0000ms, 7166ms total)
T2038 735:897 JLINK_IsHalted() -- CPU_ReadMem(2 bytes @ 0x20000000)  returns TRUE (0003ms, 7169ms total)
T2038 735:900 JLINK_ReadReg(R15 (PC))  returns 0x20000000 (0001ms, 7167ms total)
T2038 735:901 JLINK_ClrBPEx(BPHandle = 0x00000007)  returns 0x00 (0000ms, 7167ms total)
T2038 735:901 JLINK_ReadReg(R0)  returns 0x00000000 (0000ms, 7167ms total)
T2038 735:901 JLINK_WriteMem(0x20000170, 0x0290 Bytes, ...) - Data: 00 26 00 20 13 90 12 90 11 90 30 21 05 A8 FF F7 ... -- CPU_WriteMem(656 bytes @ 0x20000170)  returns 0x290 (0004ms, 7171ms total)
T2038 735:905 JLINK_WriteMem(0x20000400, 0x0170 Bytes, ...) - Data: 81 60 05 4A C2 60 CA 43 02 61 03 4A D2 43 42 61 ... -- CPU_WriteMem(368 bytes @ 0x20000400)  returns 0x170 (0003ms, 7174ms total)
T2038 735:908 JLINK_WriteReg(R0, 0x08000C00)  returns 0x00 (0000ms, 7174ms total)
T2038 735:908 JLINK_WriteReg(R1, 0x00000400)  returns 0x00 (0000ms, 7174ms total)
T2038 735:908 JLINK_WriteReg(R2, 0x20000170)  returns 0x00 (0000ms, 7174ms total)
T2038 735:908 JLINK_WriteReg(R3, 0x00000000)  returns 0x00 (0000ms, 7174ms total)
T2038 735:908 JLINK_WriteReg(R4, 0x00000000)  returns 0x00 (0000ms, 7174ms total)
T2038 735:908 JLINK_WriteReg(R5, 0x00000000)  returns 0x00 (0000ms, 7174ms total)
T2038 735:908 JLINK_WriteReg(R6, 0x00000000)  returns 0x00 (0000ms, 7174ms total)
T2038 735:908 JLINK_WriteReg(R7, 0x00000000)  returns 0x00 (0000ms, 7174ms total)
T2038 735:908 JLINK_WriteReg(R8, 0x00000000)  returns 0x00 (0000ms, 7174ms total)
T2038 735:908 JLINK_WriteReg(R9, 0x2000016C)  returns 0x00 (0000ms, 7174ms total)
T2038 735:908 JLINK_WriteReg(R10, 0x00000000)  returns 0x00 (0000ms, 7174ms total)
T2038 735:908 JLINK_WriteReg(R11, 0x00000000)  returns 0x00 (0000ms, 7174ms total)
T2038 735:908 JLINK_WriteReg(R12, 0x00000000)  returns 0x00 (0000ms, 7174ms total)
T2038 735:908 JLINK_WriteReg(R13 (SP), 0x20001000)  returns 0x00 (0000ms, 7174ms total)
T2038 735:908 JLINK_WriteReg(R14, 0x20000001)  returns 0x00 (0000ms, 7174ms total)
T2038 735:908 JLINK_WriteReg(R15 (PC), 0x200000FA)  returns 0x00 (0000ms, 7174ms total)
T2038 735:908 JLINK_WriteReg(XPSR, 0x01000000)  returns 0x00 (0000ms, 7174ms total)
T2038 735:908 JLINK_WriteReg(MSP, 0x20001000)  returns 0x00 (0000ms, 7174ms total)
T2038 735:908 JLINK_WriteReg(PSP, 0x20001000)  returns 0x00 (0000ms, 7174ms total)
T2038 735:908 JLINK_WriteReg(CFBP, 0x00000000)  returns 0x00 (0000ms, 7174ms total)
T2038 735:908 JLINK_SetBPEx(Addr = 0x20000000, Type = 0xFFFFFFF2)  returns 0x00000008 (0000ms, 7174ms total)
T2038 735:908 JLINK_Go() -- CPU_ReadMem(4 bytes @ 0xE0001000) -- CPU_WriteMem(4 bytes @ 0xE0001000) (0005ms, 7179ms total)
T2038 735:913 JLINK_IsHalted()  returns FALSE (0000ms, 7179ms total)
T2038 735:915 JLINK_IsHalted()  returns FALSE (0000ms, 7179ms total)
T2038 735:917 JLINK_IsHalted()  returns FALSE (0000ms, 7179ms total)
T2038 735:919 JLINK_IsHalted()  returns FALSE (0000ms, 7179ms total)
T2038 735:921 JLINK_IsHalted()  returns FALSE (0000ms, 7179ms total)
T2038 735:923 JLINK_IsHalted()  returns FALSE (0000ms, 7179ms total)
T2038 735:925 JLINK_IsHalted()  returns FALSE (0000ms, 7179ms total)
T2038 735:927 JLINK_IsHalted()  returns FALSE (0000ms, 7179ms total)
T2038 735:929 JLINK_IsHalted()  returns FALSE (0000ms, 7179ms total)
T2038 735:931 JLINK_IsHalted()  returns FALSE (0000ms, 7179ms total)
T2038 735:936 JLINK_IsHalted()  returns FALSE (0000ms, 7179ms total)
T2038 735:938 JLINK_IsHalted()  returns FALSE (0000ms, 7179ms total)
T2038 735:940 JLINK_IsHalted()  returns FALSE (0000ms, 7179ms total)
T2038 735:942 JLINK_IsHalted()  returns FALSE (0000ms, 7179ms total)
T2038 735:944 JLINK_IsHalted() -- CPU_ReadMem(2 bytes @ 0x20000000)  returns TRUE (0003ms, 7182ms total)
T2038 735:947 JLINK_ReadReg(R15 (PC))  returns 0x20000000 (0001ms, 7180ms total)
T2038 735:948 JLINK_ClrBPEx(BPHandle = 0x00000008)  returns 0x00 (0000ms, 7180ms total)
T2038 735:948 JLINK_ReadReg(R0)  returns 0x00000000 (0000ms, 7180ms total)
T2038 735:949 JLINK_WriteMem(0x20000170, 0x0290 Bytes, ...) - Data: 61 0E 08 43 04 46 64 19 20 46 28 40 31 46 A1 43 ... -- CPU_WriteMem(656 bytes @ 0x20000170)  returns 0x290 (0004ms, 7184ms total)
T2038 735:953 JLINK_WriteMem(0x20000400, 0x0170 Bytes, ...) - Data: 86 19 B0 03 B1 0C 08 43 06 46 F6 19 30 46 20 40 ... -- CPU_WriteMem(368 bytes @ 0x20000400)  returns 0x170 (0003ms, 7187ms total)
T2038 735:956 JLINK_WriteReg(R0, 0x08001000)  returns 0x00 (0000ms, 7187ms total)
T2038 735:956 JLINK_WriteReg(R1, 0x00000400)  returns 0x00 (0000ms, 7187ms total)
T2038 735:956 JLINK_WriteReg(R2, 0x20000170)  returns 0x00 (0000ms, 7187ms total)
T2038 735:956 JLINK_WriteReg(R3, 0x00000000)  returns 0x00 (0000ms, 7187ms total)
T2038 735:956 JLINK_WriteReg(R4, 0x00000000)  returns 0x00 (0000ms, 7187ms total)
T2038 735:956 JLINK_WriteReg(R5, 0x00000000)  returns 0x00 (0000ms, 7187ms total)
T2038 735:956 JLINK_WriteReg(R6, 0x00000000)  returns 0x00 (0000ms, 7187ms total)
T2038 735:956 JLINK_WriteReg(R7, 0x00000000)  returns 0x00 (0000ms, 7187ms total)
T2038 735:956 JLINK_WriteReg(R8, 0x00000000)  returns 0x00 (0000ms, 7187ms total)
T2038 735:956 JLINK_WriteReg(R9, 0x2000016C)  returns 0x00 (0000ms, 7187ms total)
T2038 735:956 JLINK_WriteReg(R10, 0x00000000)  returns 0x00 (0000ms, 7187ms total)
T2038 735:956 JLINK_WriteReg(R11, 0x00000000)  returns 0x00 (0000ms, 7187ms total)
T2038 735:956 JLINK_WriteReg(R12, 0x00000000)  returns 0x00 (0000ms, 7187ms total)
T2038 735:956 JLINK_WriteReg(R13 (SP), 0x20001000)  returns 0x00 (0000ms, 7187ms total)
T2038 735:956 JLINK_WriteReg(R14, 0x20000001)  returns 0x00 (0000ms, 7187ms total)
T2038 735:956 JLINK_WriteReg(R15 (PC), 0x200000FA)  returns 0x00 (0000ms, 7187ms total)
T2038 735:956 JLINK_WriteReg(XPSR, 0x01000000)  returns 0x00 (0000ms, 7187ms total)
T2038 735:956 JLINK_WriteReg(MSP, 0x20001000)  returns 0x00 (0000ms, 7187ms total)
T2038 735:956 JLINK_WriteReg(PSP, 0x20001000)  returns 0x00 (0000ms, 7187ms total)
T2038 735:956 JLINK_WriteReg(CFBP, 0x00000000)  returns 0x00 (0000ms, 7187ms total)
T2038 735:956 JLINK_SetBPEx(Addr = 0x20000000, Type = 0xFFFFFFF2)  returns 0x00000009 (0000ms, 7187ms total)
T2038 735:956 JLINK_Go() -- CPU_ReadMem(4 bytes @ 0xE0001000) -- CPU_WriteMem(4 bytes @ 0xE0001000) (0005ms, 7192ms total)
T2038 735:961 JLINK_IsHalted()  returns FALSE (0001ms, 7193ms total)
T2038 735:964 JLINK_IsHalted()  returns FALSE (0000ms, 7192ms total)
T2038 735:966 JLINK_IsHalted()  returns FALSE (0000ms, 7192ms total)
T2038 735:968 JLINK_IsHalted()  returns FALSE (0000ms, 7192ms total)
T2038 735:970 JLINK_IsHalted()  returns FALSE (0000ms, 7192ms total)
T2038 735:972 JLINK_IsHalted()  returns FALSE (0000ms, 7192ms total)
T2038 735:974 JLINK_IsHalted()  returns FALSE (0000ms, 7192ms total)
T2038 735:975 JLINK_IsHalted()  returns FALSE (0000ms, 7192ms total)
T2038 735:977 JLINK_IsHalted()  returns FALSE (0000ms, 7192ms total)
T2038 735:979 JLINK_IsHalted()  returns FALSE (0000ms, 7192ms total)
T2038 735:981 JLINK_IsHalted()  returns FALSE (0000ms, 7192ms total)
T2038 735:983 JLINK_IsHalted()  returns FALSE (0000ms, 7192ms total)
T2038 735:985 JLINK_IsHalted()  returns FALSE (0000ms, 7192ms total)
T2038 735:987 JLINK_IsHalted()  returns FALSE (0000ms, 7192ms total)
T2038 735:989 JLINK_IsHalted()  returns FALSE (0000ms, 7192ms total)
T2038 735:991 JLINK_IsHalted() -- CPU_ReadMem(2 bytes @ 0x20000000)  returns TRUE (0003ms, 7195ms total)
T2038 735:994 JLINK_ReadReg(R15 (PC))  returns 0x20000000 (0000ms, 7192ms total)
T2038 735:994 JLINK_ClrBPEx(BPHandle = 0x00000009)  returns 0x00 (0000ms, 7192ms total)
T2038 735:994 JLINK_ReadReg(R0)  returns 0x00000000 (0000ms, 7192ms total)
T2038 736:001 JLINK_WriteMem(0x20000170, 0x0290 Bytes, ...) - Data: 78 40 60 40 0A 99 40 18 B6 49 40 18 45 19 E8 05 ... -- CPU_WriteMem(656 bytes @ 0x20000170)  returns 0x290 (0005ms, 7197ms total)
T2038 736:006 JLINK_WriteMem(0x20000400, 0x0170 Bytes, ...) - Data: 08 43 78 40 09 99 40 18 2A 49 40 18 45 19 68 05 ... -- CPU_WriteMem(368 bytes @ 0x20000400)  returns 0x170 (0002ms, 7199ms total)
T2038 736:008 JLINK_WriteReg(R0, 0x08001400)  returns 0x00 (0000ms, 7199ms total)
T2038 736:008 JLINK_WriteReg(R1, 0x00000400)  returns 0x00 (0000ms, 7199ms total)
T2038 736:008 JLINK_WriteReg(R2, 0x20000170)  returns 0x00 (0000ms, 7199ms total)
T2038 736:008 JLINK_WriteReg(R3, 0x00000000)  returns 0x00 (0000ms, 7199ms total)
T2038 736:008 JLINK_WriteReg(R4, 0x00000000)  returns 0x00 (0000ms, 7199ms total)
T2038 736:008 JLINK_WriteReg(R5, 0x00000000)  returns 0x00 (0000ms, 7199ms total)
T2038 736:008 JLINK_WriteReg(R6, 0x00000000)  returns 0x00 (0000ms, 7199ms total)
T2038 736:008 JLINK_WriteReg(R7, 0x00000000)  returns 0x00 (0000ms, 7199ms total)
T2038 736:008 JLINK_WriteReg(R8, 0x00000000)  returns 0x00 (0000ms, 7199ms total)
T2038 736:008 JLINK_WriteReg(R9, 0x2000016C)  returns 0x00 (0001ms, 7200ms total)
T2038 736:009 JLINK_WriteReg(R10, 0x00000000)  returns 0x00 (0000ms, 7200ms total)
T2038 736:009 JLINK_WriteReg(R11, 0x00000000)  returns 0x00 (0000ms, 7200ms total)
T2038 736:009 JLINK_WriteReg(R12, 0x00000000)  returns 0x00 (0000ms, 7200ms total)
T2038 736:009 JLINK_WriteReg(R13 (SP), 0x20001000)  returns 0x00 (0000ms, 7200ms total)
T2038 736:009 JLINK_WriteReg(R14, 0x20000001)  returns 0x00 (0000ms, 7200ms total)
T2038 736:009 JLINK_WriteReg(R15 (PC), 0x200000FA)  returns 0x00 (0000ms, 7200ms total)
T2038 736:009 JLINK_WriteReg(XPSR, 0x01000000)  returns 0x00 (0000ms, 7200ms total)
T2038 736:009 JLINK_WriteReg(MSP, 0x20001000)  returns 0x00 (0000ms, 7200ms total)
T2038 736:009 JLINK_WriteReg(PSP, 0x20001000)  returns 0x00 (0000ms, 7200ms total)
T2038 736:009 JLINK_WriteReg(CFBP, 0x00000000)  returns 0x00 (0000ms, 7200ms total)
T2038 736:009 JLINK_SetBPEx(Addr = 0x20000000, Type = 0xFFFFFFF2)  returns 0x0000000A (0000ms, 7200ms total)
T2038 736:009 JLINK_Go() -- CPU_ReadMem(4 bytes @ 0xE0001000) -- CPU_WriteMem(4 bytes @ 0xE0001000) (0004ms, 7204ms total)
T2038 736:013 JLINK_IsHalted()  returns FALSE (0001ms, 7205ms total)
T2038 736:016 JLINK_IsHalted()  returns FALSE (0000ms, 7204ms total)
T2038 736:018 JLINK_IsHalted()  returns FALSE (0000ms, 7204ms total)
T2038 736:020 JLINK_IsHalted()  returns FALSE (0000ms, 7204ms total)
T2038 736:022 JLINK_IsHalted()  returns FALSE (0000ms, 7204ms total)
T2038 736:024 JLINK_IsHalted()  returns FALSE (0000ms, 7204ms total)
T2038 736:026 JLINK_IsHalted()  returns FALSE (0000ms, 7204ms total)
T2038 736:028 JLINK_IsHalted()  returns FALSE (0000ms, 7204ms total)
T2038 736:030 JLINK_IsHalted()  returns FALSE (0000ms, 7204ms total)
T2038 736:032 JLINK_IsHalted()  returns FALSE (0000ms, 7204ms total)
T2038 736:034 JLINK_IsHalted()  returns FALSE (0000ms, 7204ms total)
T2038 736:036 JLINK_IsHalted()  returns FALSE (0000ms, 7204ms total)
T2038 736:038 JLINK_IsHalted()  returns FALSE (0000ms, 7204ms total)
T2038 736:040 JLINK_IsHalted()  returns FALSE (0000ms, 7204ms total)
T2038 736:043 JLINK_IsHalted()  returns FALSE (0000ms, 7204ms total)
T2038 736:045 JLINK_IsHalted() -- CPU_ReadMem(2 bytes @ 0x20000000)  returns TRUE (0003ms, 7207ms total)
T2038 736:048 JLINK_ReadReg(R15 (PC))  returns 0x20000000 (0000ms, 7204ms total)
T2038 736:048 JLINK_ClrBPEx(BPHandle = 0x0000000A)  returns 0x00 (0000ms, 7204ms total)
T2038 736:048 JLINK_ReadReg(R0)  returns 0x00000000 (0000ms, 7204ms total)
T2038 736:049 JLINK_WriteMem(0x20000170, 0x0290 Bytes, ...) - Data: FF F7 BA F9 01 21 88 04 00 F0 5A F8 0C 48 00 90 ... -- CPU_WriteMem(656 bytes @ 0x20000170)  returns 0x290 (0004ms, 7208ms total)
T2038 736:053 JLINK_WriteMem(0x20000400, 0x0170 Bytes, ...) - Data: E0 61 14 E0 25 48 00 6B 03 21 09 04 08 40 01 21 ... -- CPU_WriteMem(368 bytes @ 0x20000400)  returns 0x170 (0003ms, 7211ms total)
T2038 736:056 JLINK_WriteReg(R0, 0x08001800)  returns 0x00 (0000ms, 7211ms total)
T2038 736:056 JLINK_WriteReg(R1, 0x00000400)  returns 0x00 (0000ms, 7211ms total)
T2038 736:056 JLINK_WriteReg(R2, 0x20000170)  returns 0x00 (0000ms, 7211ms total)
T2038 736:056 JLINK_WriteReg(R3, 0x00000000)  returns 0x00 (0000ms, 7211ms total)
T2038 736:056 JLINK_WriteReg(R4, 0x00000000)  returns 0x00 (0000ms, 7211ms total)
T2038 736:056 JLINK_WriteReg(R5, 0x00000000)  returns 0x00 (0000ms, 7211ms total)
T2038 736:056 JLINK_WriteReg(R6, 0x00000000)  returns 0x00 (0000ms, 7211ms total)
T2038 736:056 JLINK_WriteReg(R7, 0x00000000)  returns 0x00 (0000ms, 7211ms total)
T2038 736:056 JLINK_WriteReg(R8, 0x00000000)  returns 0x00 (0000ms, 7211ms total)
T2038 736:056 JLINK_WriteReg(R9, 0x2000016C)  returns 0x00 (0000ms, 7211ms total)
T2038 736:056 JLINK_WriteReg(R10, 0x00000000)  returns 0x00 (0000ms, 7211ms total)
T2038 736:056 JLINK_WriteReg(R11, 0x00000000)  returns 0x00 (0000ms, 7211ms total)
T2038 736:056 JLINK_WriteReg(R12, 0x00000000)  returns 0x00 (0000ms, 7211ms total)
T2038 736:056 JLINK_WriteReg(R13 (SP), 0x20001000)  returns 0x00 (0000ms, 7211ms total)
T2038 736:056 JLINK_WriteReg(R14, 0x20000001)  returns 0x00 (0000ms, 7211ms total)
T2038 736:056 JLINK_WriteReg(R15 (PC), 0x200000FA)  returns 0x00 (0000ms, 7211ms total)
T2038 736:056 JLINK_WriteReg(XPSR, 0x01000000)  returns 0x00 (0000ms, 7211ms total)
T2038 736:056 JLINK_WriteReg(MSP, 0x20001000)  returns 0x00 (0000ms, 7211ms total)
T2038 736:056 JLINK_WriteReg(PSP, 0x20001000)  returns 0x00 (0000ms, 7211ms total)
T2038 736:056 JLINK_WriteReg(CFBP, 0x00000000)  returns 0x00 (0000ms, 7211ms total)
T2038 736:056 JLINK_SetBPEx(Addr = 0x20000000, Type = 0xFFFFFFF2)  returns 0x0000000B (0000ms, 7211ms total)
T2038 736:056 JLINK_Go() -- CPU_ReadMem(4 bytes @ 0xE0001000) -- CPU_WriteMem(4 bytes @ 0xE0001000) (0004ms, 7215ms total)
T2038 736:060 JLINK_IsHalted()  returns FALSE (0001ms, 7216ms total)
T2038 736:063 JLINK_IsHalted()  returns FALSE (0000ms, 7215ms total)
T2038 736:065 JLINK_IsHalted()  returns FALSE (0000ms, 7215ms total)
T2038 736:067 JLINK_IsHalted()  returns FALSE (0000ms, 7215ms total)
T2038 736:069 JLINK_IsHalted()  returns FALSE (0000ms, 7215ms total)
T2038 736:071 JLINK_IsHalted()  returns FALSE (0000ms, 7215ms total)
T2038 736:077 JLINK_IsHalted()  returns FALSE (0000ms, 7215ms total)
T2038 736:079 JLINK_IsHalted()  returns FALSE (0000ms, 7215ms total)
T2038 736:081 JLINK_IsHalted()  returns FALSE (0000ms, 7215ms total)
T2038 736:084 JLINK_IsHalted()  returns FALSE (0000ms, 7215ms total)
T2038 736:086 JLINK_IsHalted()  returns FALSE (0000ms, 7215ms total)
T2038 736:088 JLINK_IsHalted()  returns FALSE (0000ms, 7215ms total)
T2038 736:090 JLINK_IsHalted() -- CPU_ReadMem(2 bytes @ 0x20000000)  returns TRUE (0003ms, 7218ms total)
T2038 736:093 JLINK_ReadReg(R15 (PC))  returns 0x20000000 (0000ms, 7215ms total)
T2038 736:093 JLINK_ClrBPEx(BPHandle = 0x0000000B)  returns 0x00 (0000ms, 7215ms total)
T2038 736:093 JLINK_ReadReg(R0)  returns 0x00000000 (0000ms, 7215ms total)
T2038 736:094 JLINK_WriteMem(0x20000170, 0x0290 Bytes, ...) - Data: 49 02 41 82 08 21 81 82 00 21 C1 82 07 21 01 83 ... -- CPU_WriteMem(656 bytes @ 0x20000170)  returns 0x290 (0004ms, 7219ms total)
T2038 736:098 JLINK_WriteMem(0x20000400, 0x0170 Bytes, ...) - Data: FF FF 00 00 F8 B5 05 46 0E 46 17 46 00 24 07 E0 ... -- CPU_WriteMem(368 bytes @ 0x20000400)  returns 0x170 (0003ms, 7222ms total)
T2038 736:101 JLINK_WriteReg(R0, 0x08001C00)  returns 0x00 (0000ms, 7222ms total)
T2038 736:101 JLINK_WriteReg(R1, 0x00000400)  returns 0x00 (0000ms, 7222ms total)
T2038 736:101 JLINK_WriteReg(R2, 0x20000170)  returns 0x00 (0000ms, 7222ms total)
T2038 736:101 JLINK_WriteReg(R3, 0x00000000)  returns 0x00 (0000ms, 7222ms total)
T2038 736:101 JLINK_WriteReg(R4, 0x00000000)  returns 0x00 (0000ms, 7222ms total)
T2038 736:101 JLINK_WriteReg(R5, 0x00000000)  returns 0x00 (0000ms, 7222ms total)
T2038 736:101 JLINK_WriteReg(R6, 0x00000000)  returns 0x00 (0000ms, 7222ms total)
T2038 736:101 JLINK_WriteReg(R7, 0x00000000)  returns 0x00 (0000ms, 7222ms total)
T2038 736:101 JLINK_WriteReg(R8, 0x00000000)  returns 0x00 (0000ms, 7222ms total)
T2038 736:101 JLINK_WriteReg(R9, 0x2000016C)  returns 0x00 (0000ms, 7222ms total)
T2038 736:101 JLINK_WriteReg(R10, 0x00000000)  returns 0x00 (0000ms, 7222ms total)
T2038 736:101 JLINK_WriteReg(R11, 0x00000000)  returns 0x00 (0000ms, 7222ms total)
T2038 736:101 JLINK_WriteReg(R12, 0x00000000)  returns 0x00 (0000ms, 7222ms total)
T2038 736:101 JLINK_WriteReg(R13 (SP), 0x20001000)  returns 0x00 (0000ms, 7222ms total)
T2038 736:101 JLINK_WriteReg(R14, 0x20000001)  returns 0x00 (0000ms, 7222ms total)
T2038 736:101 JLINK_WriteReg(R15 (PC), 0x200000FA)  returns 0x00 (0000ms, 7222ms total)
T2038 736:101 JLINK_WriteReg(XPSR, 0x01000000)  returns 0x00 (0000ms, 7222ms total)
T2038 736:101 JLINK_WriteReg(MSP, 0x20001000)  returns 0x00 (0000ms, 7222ms total)
T2038 736:101 JLINK_WriteReg(PSP, 0x20001000)  returns 0x00 (0000ms, 7222ms total)
T2038 736:101 JLINK_WriteReg(CFBP, 0x00000000)  returns 0x00 (0000ms, 7222ms total)
T2038 736:101 JLINK_SetBPEx(Addr = 0x20000000, Type = 0xFFFFFFF2)  returns 0x0000000C (0000ms, 7222ms total)
T2038 736:101 JLINK_Go() -- CPU_ReadMem(4 bytes @ 0xE0001000) -- CPU_WriteMem(4 bytes @ 0xE0001000) (0004ms, 7226ms total)
T2038 736:105 JLINK_IsHalted()  returns FALSE (0001ms, 7227ms total)
T2038 736:109 JLINK_IsHalted()  returns FALSE (0000ms, 7226ms total)
T2038 736:111 JLINK_IsHalted()  returns FALSE (0000ms, 7226ms total)
T2038 736:113 JLINK_IsHalted()  returns FALSE (0000ms, 7226ms total)
T2038 736:115 JLINK_IsHalted()  returns FALSE (0000ms, 7226ms total)
T2038 736:117 JLINK_IsHalted()  returns FALSE (0000ms, 7226ms total)
T2038 736:119 JLINK_IsHalted()  returns FALSE (0000ms, 7226ms total)
T2038 736:124 JLINK_IsHalted()  returns FALSE (0000ms, 7226ms total)
T2038 736:126 JLINK_IsHalted()  returns FALSE (0000ms, 7226ms total)
T2038 736:128 JLINK_IsHalted()  returns FALSE (0000ms, 7226ms total)
T2038 736:130 JLINK_IsHalted()  returns FALSE (0000ms, 7226ms total)
T2038 736:132 JLINK_IsHalted()  returns FALSE (0000ms, 7226ms total)
T2038 736:134 JLINK_IsHalted()  returns FALSE (0000ms, 7226ms total)
T2038 736:136 JLINK_IsHalted() -- CPU_ReadMem(2 bytes @ 0x20000000)  returns TRUE (0003ms, 7229ms total)
T2038 736:139 JLINK_ReadReg(R15 (PC))  returns 0x20000000 (0000ms, 7226ms total)
T2038 736:139 JLINK_ClrBPEx(BPHandle = 0x0000000C)  returns 0x00 (0000ms, 7226ms total)
T2038 736:139 JLINK_ReadReg(R0)  returns 0x00000000 (0000ms, 7226ms total)
T2038 736:140 JLINK_WriteMem(0x20000170, 0x0290 Bytes, ...) - Data: 00 01 C8 62 08 46 00 6B FF 21 54 31 88 43 06 49 ... -- CPU_WriteMem(656 bytes @ 0x20000170)  returns 0x290 (0004ms, 7230ms total)
T2038 736:144 JLINK_WriteMem(0x20000400, 0x0170 Bytes, ...) - Data: 02 2D 02 D1 56 68 31 40 01 E0 96 68 31 40 1C 0C ... -- CPU_WriteMem(368 bytes @ 0x20000400)  returns 0x170 (0003ms, 7233ms total)
T2038 736:147 JLINK_WriteReg(R0, 0x08002000)  returns 0x00 (0000ms, 7233ms total)
T2038 736:147 JLINK_WriteReg(R1, 0x00000400)  returns 0x00 (0000ms, 7233ms total)
T2038 736:147 JLINK_WriteReg(R2, 0x20000170)  returns 0x00 (0000ms, 7233ms total)
T2038 736:147 JLINK_WriteReg(R3, 0x00000000)  returns 0x00 (0000ms, 7233ms total)
T2038 736:147 JLINK_WriteReg(R4, 0x00000000)  returns 0x00 (0000ms, 7233ms total)
T2038 736:147 JLINK_WriteReg(R5, 0x00000000)  returns 0x00 (0000ms, 7233ms total)
T2038 736:147 JLINK_WriteReg(R6, 0x00000000)  returns 0x00 (0000ms, 7233ms total)
T2038 736:147 JLINK_WriteReg(R7, 0x00000000)  returns 0x00 (0000ms, 7233ms total)
T2038 736:147 JLINK_WriteReg(R8, 0x00000000)  returns 0x00 (0001ms, 7234ms total)
T2038 736:148 JLINK_WriteReg(R9, 0x2000016C)  returns 0x00 (0000ms, 7234ms total)
T2038 736:148 JLINK_WriteReg(R10, 0x00000000)  returns 0x00 (0000ms, 7234ms total)
T2038 736:148 JLINK_WriteReg(R11, 0x00000000)  returns 0x00 (0000ms, 7234ms total)
T2038 736:148 JLINK_WriteReg(R12, 0x00000000)  returns 0x00 (0000ms, 7234ms total)
T2038 736:148 JLINK_WriteReg(R13 (SP), 0x20001000)  returns 0x00 (0000ms, 7234ms total)
T2038 736:148 JLINK_WriteReg(R14, 0x20000001)  returns 0x00 (0000ms, 7234ms total)
T2038 736:148 JLINK_WriteReg(R15 (PC), 0x200000FA)  returns 0x00 (0000ms, 7234ms total)
T2038 736:148 JLINK_WriteReg(XPSR, 0x01000000)  returns 0x00 (0000ms, 7234ms total)
T2038 736:148 JLINK_WriteReg(MSP, 0x20001000)  returns 0x00 (0000ms, 7234ms total)
T2038 736:148 JLINK_WriteReg(PSP, 0x20001000)  returns 0x00 (0000ms, 7234ms total)
T2038 736:148 JLINK_WriteReg(CFBP, 0x00000000)  returns 0x00 (0000ms, 7234ms total)
T2038 736:148 JLINK_SetBPEx(Addr = 0x20000000, Type = 0xFFFFFFF2)  returns 0x0000000D (0000ms, 7234ms total)
T2038 736:148 JLINK_Go() -- CPU_ReadMem(4 bytes @ 0xE0001000) -- CPU_WriteMem(4 bytes @ 0xE0001000) (0004ms, 7238ms total)
T2038 736:152 JLINK_IsHalted()  returns FALSE (0001ms, 7239ms total)
T2038 736:157 JLINK_IsHalted()  returns FALSE (0000ms, 7238ms total)
T2038 736:158 JLINK_IsHalted()  returns FALSE (0000ms, 7238ms total)
T2038 736:160 JLINK_IsHalted()  returns FALSE (0000ms, 7238ms total)
